TAAEC 000:020.216   SEGGER J-Link V8.10g Log File
TAAEC 000:020.367   DLL Compiled: Nov 14 2024 08:38:33
TAAEC 000:020.375   Logging started @ 2026-01-17 11:23
TAAEC 000:020.382   Process: D:\Software\Keil\keil5 538A\UV4\UV4.exe
TAAEC 000:020.400 - 20.391ms 
TAAEC 000:020.413 JLINK_SetWarnOutHandler(...)
TAAEC 000:020.420 - 0.008ms 
TAAEC 000:020.431 JLINK_OpenEx(...)
TAAEC 000:024.442   Firmware: J-Link V9 compiled May  7 2021 16:26:12
TAAEC 000:025.882   Firmware: J-Link V9 compiled May  7 2021 16:26:12
TAAEC 000:026.027   Decompressing FW timestamp took 98 us
TAAEC 000:035.683   Hardware: V9.40
TAAEC 000:035.707   S/N: 69407506
TAAEC 000:035.717   OEM: SEGGER
TAAEC 000:035.727   Feature(s): RDI, GDB, FlashDL, FlashBP, JFlash
TAAEC 000:036.717   Bootloader: (FW returned invalid version)
TAAEC 000:038.147   TELNET listener socket opened on port 19021
TAAEC 000:038.230   WEBSRV WEBSRV_Init(): Starting webserver thread(s)
TAAEC 000:038.476   WEBSRV Webserver running on local port 19080
TAAEC 000:038.687   Looking for J-Link GUI Server exe at: D:\Software\Keil\keil5 538A\ARM\Segger\JLinkGUIServer.exe
TAAEC 000:038.857   Looking for J-Link GUI Server exe at: C:\Program Files\SEGGER\JLink_V846\JLinkGUIServer.exe
TAAEC 000:038.901   Forking J-Link GUI Server: C:\Program Files\SEGGER\JLink_V846\JLinkGUIServer.exe
TAAEC 000:079.784   J-Link GUI Server info: "J-Link GUI server V8.46 "
TAAEC 000:080.195 - 59.752ms returns "O.K."
TAAEC 000:080.270 JLINK_GetEmuCaps()
TAAEC 000:080.285 - 0.010ms returns 0xB9FF7BBF
TAAEC 000:080.295 JLINK_TIF_GetAvailable(...)
TAAEC 000:080.722 - 0.426ms 
TAAEC 000:080.746 JLINK_SetErrorOutHandler(...)
TAAEC 000:080.755 - 0.009ms 
TAAEC 000:080.792 JLINK_ExecCommand("ProjectFile = "D:\Project\wristband_01_xyx_r_V1.7_250724\projects\peripheral\graphics\graphics_lvgl_831_gpu_demo\Keil_5\JLinkSettings.ini"", ...). 
TAAEC 000:094.761 - 13.972ms returns 0x00
TAAEC 000:094.831 JLINK_ExecCommand("Device = ARMCM4_FP", ...). 
TAAEC 000:095.888   Device "CORTEX-M4" selected.
TAAEC 000:096.338 - 1.493ms returns 0x00
TAAEC 000:096.354 JLINK_ExecCommand("DisableConnectionTimeout", ...). 
TAAEC 000:096.370   ERROR: Unknown command
TAAEC 000:096.381 - 0.018ms returns 0x01
TAAEC 000:096.390 JLINK_GetHardwareVersion()
TAAEC 000:096.398 - 0.007ms returns 94000
TAAEC 000:096.405 JLINK_GetDLLVersion()
TAAEC 000:096.412 - 0.007ms returns 81007
TAAEC 000:096.422 JLINK_GetOEMString(...)
TAAEC 000:096.431 JLINK_GetFirmwareString(...)
TAAEC 000:096.438 - 0.008ms 
TAAEC 000:096.466 JLINK_GetDLLVersion()
TAAEC 000:096.473 - 0.007ms returns 81007
TAAEC 000:096.481 JLINK_GetCompileDateTime()
TAAEC 000:096.487 - 0.007ms 
TAAEC 000:096.499 JLINK_GetFirmwareString(...)
TAAEC 000:096.506 - 0.007ms 
TAAEC 000:096.516 JLINK_GetHardwareVersion()
TAAEC 000:096.523 - 0.007ms returns 94000
TAAEC 000:096.534 JLINK_GetSN()
TAAEC 000:096.541 - 0.007ms returns 69407506
TAAEC 000:096.551 JLINK_GetOEMString(...)
TAAEC 000:096.564 JLINK_TIF_Select(JLINKARM_TIF_SWD)
TAAEC 000:098.151 - 1.586ms returns 0x00
TAAEC 000:098.179 JLINK_HasError()
TAAEC 000:098.201 JLINK_SetSpeed(2000)
TAAEC 000:098.535 - 0.333ms 
TAAEC 000:098.568 JLINK_GetId()
TAAEC 000:100.157   Found SW-DP with ID 0x2BA01477
TAAEC 000:104.967   DPIDR: 0x2BA01477
TAAEC 000:105.015   CoreSight SoC-400 or earlier
TAAEC 000:105.033   Scanning AP map to find all available APs
TAAEC 000:106.117   AP[1]: Stopped AP scan as end of AP map has been reached
TAAEC 000:106.161   AP[0]: AHB-AP (IDR: 0x24770011, ADDR: 0x00000000)
TAAEC 000:106.178   Iterating through AP map to find AHB-AP to use
TAAEC 000:107.778   AP[0]: Core found
TAAEC 000:107.813   AP[0]: AHB-AP ROM base: 0xE00FF000
TAAEC 000:108.667   CPUID register: 0x410FC241. Implementer code: 0x41 (ARM)
TAAEC 000:108.685   Found Cortex-M4 r0p1, Little endian.
TAAEC 000:109.450   -- Max. mem block: 0x00010C40
TAAEC 000:110.249   CPU_ReadMem(4 bytes @ 0xE000EDF0)
TAAEC 000:110.863   CPU_WriteMem(4 bytes @ 0xE000EDF0)
TAAEC 000:111.530   CPU_ReadMem(4 bytes @ 0xE0002000)
TAAEC 000:112.319   FPUnit: 15 code (BP) slots and 2 literal slots
TAAEC 000:112.467   CPU_ReadMem(4 bytes @ 0xE000EDFC)
TAAEC 000:113.056   CPU_WriteMem(4 bytes @ 0xE000EDFC)
TAAEC 000:113.708   CPU_ReadMem(4 bytes @ 0xE0001000)
TAAEC 000:114.312   CPU_WriteMem(4 bytes @ 0xE0001000)
TAAEC 000:114.925   CPU_ReadMem(4 bytes @ 0xE000ED88)
TAAEC 000:115.713   CPU_WriteMem(4 bytes @ 0xE000ED88)
TAAEC 000:116.361   CPU_ReadMem(4 bytes @ 0xE000ED88)
TAAEC 000:117.005   CPU_WriteMem(4 bytes @ 0xE000ED88)
TAAEC 000:117.604   CoreSight components:
TAAEC 000:117.620   ROMTbl[0] @ E00FF000
TAAEC 000:117.631   CPU_ReadMem(64 bytes @ 0xE00FF000)
TAAEC 000:118.928   CPU_ReadMem(32 bytes @ 0xE000EFE0)
TAAEC 000:119.891   [0][0]: E000E000 CID B105E00D PID 000BB00C SCS-M7
TAAEC 000:119.917   CPU_ReadMem(32 bytes @ 0xE0001FE0)
TAAEC 000:120.869   [0][1]: E0001000 CID B105E00D PID 003BB002 DWT
TAAEC 000:120.884   CPU_ReadMem(32 bytes @ 0xE0002FE0)
TAAEC 000:121.883   [0][2]: E0002000 CID 00000000 PID 00000000 ???
TAAEC 000:121.898   CPU_ReadMem(32 bytes @ 0xE0000FE0)
TAAEC 000:122.867   [0][3]: E0000000 CID B105E00D PID 003BB001 ITM
TAAEC 000:122.884   CPU_ReadMem(32 bytes @ 0xE0040FE0)
TAAEC 000:123.842   [0][4]: E0040000 CID B105900D PID 000BB9A1 TPIU
TAAEC 000:124.338 - 25.769ms returns 0x2BA01477
TAAEC 000:124.370 JLINK_GetDLLVersion()
TAAEC 000:124.379 - 0.008ms returns 81007
TAAEC 000:124.389 JLINK_CORE_GetFound()
TAAEC 000:124.396 - 0.007ms returns 0xE0000FF
TAAEC 000:124.406 JLINK_GetDebugInfo(0x100 = JLINKARM_ROM_TABLE_ADDR_INDEX)
TAAEC 000:124.416   Value=0xE00FF000
TAAEC 000:124.427 - 0.020ms returns 0
TAAEC 000:124.483 JLINK_GetDebugInfo(0x100 = JLINKARM_ROM_TABLE_ADDR_INDEX)
TAAEC 000:124.493   Value=0xE00FF000
TAAEC 000:124.503 - 0.020ms returns 0
TAAEC 000:124.511 JLINK_GetDebugInfo(0x101 = JLINKARM_DEBUG_INFO_ETM_ADDR_INDEX)
TAAEC 000:124.518   Value=0x00000000
TAAEC 000:124.528 - 0.017ms returns 0
TAAEC 000:124.537 JLINK_ReadMemEx(0xE0041FF0, 0x10 Bytes, Flags = 0x02000004)
TAAEC 000:124.572   CPU_ReadMem(16 bytes @ 0xE0041FF0)
TAAEC 000:125.279   Data:  00 00 00 00 00 00 00 00 00 00 00 00 00 00 00 00
TAAEC 000:125.292 - 0.755ms returns 16 (0x10)
TAAEC 000:125.300 JLINK_GetDebugInfo(0x102 = JLINKARM_DEBUG_INFO_MTB_ADDR_INDEX)
TAAEC 000:125.307   Value=0x00000000
TAAEC 000:125.317 - 0.017ms returns 0
TAAEC 000:125.325 JLINK_GetDebugInfo(0x103 = JLINKARM_DEBUG_INFO_TPIU_ADDR_INDEX)
TAAEC 000:125.332   Value=0xE0040000
TAAEC 000:125.342 - 0.017ms returns 0
TAAEC 000:125.349 JLINK_GetDebugInfo(0x104 = JLINKARM_DEBUG_INFO_ITM_ADDR_INDEX)
TAAEC 000:125.356   Value=0xE0000000
TAAEC 000:125.366 - 0.016ms returns 0
TAAEC 000:125.374 JLINK_GetDebugInfo(0x105 = JLINKARM_DEBUG_INFO_DWT_ADDR_INDEX)
TAAEC 000:125.380   Value=0xE0001000
TAAEC 000:125.390 - 0.016ms returns 0
TAAEC 000:125.398 JLINK_GetDebugInfo(0x106 = JLINKARM_DEBUG_INFO_FPB_ADDR_INDEX)
TAAEC 000:125.404   Value=0xE0002000
TAAEC 000:125.414 - 0.016ms returns 0
TAAEC 000:125.422 JLINK_GetDebugInfo(0x107 = JLINKARM_DEBUG_INFO_NVIC_ADDR_INDEX)
TAAEC 000:125.428   Value=0xE000E000
TAAEC 000:125.439 - 0.017ms returns 0
TAAEC 000:125.446 JLINK_GetDebugInfo(0x10C = JLINKARM_DEBUG_INFO_DBG_ADDR_INDEX)
TAAEC 000:125.453   Value=0xE000EDF0
TAAEC 000:125.462 - 0.016ms returns 0
TAAEC 000:125.470 JLINK_GetDebugInfo(0x01 = Unknown)
TAAEC 000:125.477   Value=0x00000001
TAAEC 000:125.486 - 0.016ms returns 0
TAAEC 000:125.494 JLINK_ReadMemU32(0xE000ED00, 0x1 Items)
TAAEC 000:125.502   CPU_ReadMem(4 bytes @ 0xE000ED00)
TAAEC 000:126.137   Data:  41 C2 0F 41
TAAEC 000:126.155   Debug reg: CPUID
TAAEC 000:126.165 - 0.670ms returns 1 (0x1)
TAAEC 000:126.174 JLINK_GetDebugInfo(0x10F = JLINKARM_DEBUG_INFO_HAS_CORTEX_M_SECURITY_EXT_INDEX)
TAAEC 000:126.181   Value=0x00000000
TAAEC 000:126.191 - 0.017ms returns 0
TAAEC 000:126.199 JLINK_HasError()
TAAEC 000:126.207 JLINK_SetResetType(JLINKARM_CM3_RESET_TYPE_NORMAL)
TAAEC 000:126.215 - 0.007ms returns JLINKARM_CM3_RESET_TYPE_NORMAL
TAAEC 000:126.222 JLINK_Reset()
TAAEC 000:126.232   JLINK_GetResetTypeDesc
TAAEC 000:126.244   - 0.012ms 
TAAEC 000:126.264   Reset type: NORMAL (https://wiki.segger.com/J-Link_Reset_Strategies)
TAAEC 000:126.275   CPU is running
TAAEC 000:126.286   CPU_WriteMem(4 bytes @ 0xE000EDF0)
TAAEC 000:126.872   CPU is running
TAAEC 000:126.884   CPU_WriteMem(4 bytes @ 0xE000EDFC)
TAAEC 000:127.478   Reset: Halt core after reset via DEMCR.VC_CORERESET.
TAAEC 000:128.239   Reset: Reset device via AIRCR.SYSRESETREQ.
TAAEC 000:128.254   CPU is running
TAAEC 000:128.265   CPU_WriteMem(4 bytes @ 0xE000ED0C)
TAAEC 000:182.918   CPU_ReadMem(4 bytes @ 0xE000EDF0)
TAAEC 000:183.550   CPU_ReadMem(4 bytes @ 0xE000EDF0)
TAAEC 000:189.466   CPU_WriteMem(4 bytes @ 0xE000EDFC)
TAAEC 000:196.392   CPU_ReadMem(4 bytes @ 0xE000EDF0)
TAAEC 000:202.486   CPU_WriteMem(4 bytes @ 0xE0002000)
TAAEC 000:203.129   CPU_ReadMem(4 bytes @ 0xE000EDFC)
TAAEC 000:203.701   CPU_ReadMem(4 bytes @ 0xE0001000)
TAAEC 000:204.300 - 78.076ms 
TAAEC 000:204.367 JLINK_HasError()
TAAEC 000:204.393 JLINK_ReadReg(R15 (PC))
TAAEC 000:204.404 - 0.024ms returns 0x000001E4
TAAEC 000:204.412 JLINK_ReadReg(XPSR)
TAAEC 000:204.419 - 0.007ms returns 0x01000000
TAAEC 000:204.427 JLINK_Halt()
TAAEC 000:204.434 - 0.006ms returns 0x00
TAAEC 000:204.443 JLINK_ReadMemU32(0xE000EDF0, 0x1 Items)
TAAEC 000:204.454   CPU_ReadMem(4 bytes @ 0xE000EDF0)
TAAEC 000:205.017   Data:  03 00 03 00
TAAEC 000:205.031   Debug reg: DHCSR
TAAEC 000:205.042 - 0.598ms returns 1 (0x1)
TAAEC 000:205.054 JLINK_WriteU32(0xE000EDF0, 0xA05F0003)
TAAEC 000:205.061   Debug reg: DHCSR
TAAEC 000:205.379   CPU_WriteMem(4 bytes @ 0xE000EDF0)
TAAEC 000:206.043 - 0.992ms returns 0 (0x00000000)
TAAEC 000:206.056 JLINK_WriteU32(0xE000EDFC, 0x01000000)
TAAEC 000:206.065   Debug reg: DEMCR
TAAEC 000:206.080   CPU_WriteMem(4 bytes @ 0xE000EDFC)
TAAEC 000:206.770 - 0.712ms returns 0 (0x00000000)
TAAEC 000:206.856 JLINK_GetHWStatus(...)
TAAEC 000:207.231 - 0.375ms returns 0
TAAEC 000:207.254 JLINK_GetNumBPUnits(Type = 0xFFFFFF00)
TAAEC 000:207.262 - 0.008ms returns 0x0F
TAAEC 000:207.270 JLINK_GetNumBPUnits(Type = 0xF0)
TAAEC 000:207.277 - 0.006ms returns 0x2000
TAAEC 000:207.284 JLINK_GetNumWPUnits()
TAAEC 000:207.291 - 0.006ms returns 4
TAAEC 000:207.306 JLINK_GetSpeed()
TAAEC 000:207.313 - 0.007ms returns 2000
TAAEC 000:207.324 JLINK_ReadMemU32(0xE000E004, 0x1 Items)
TAAEC 000:207.335   CPU_ReadMem(4 bytes @ 0xE000E004)
TAAEC 000:207.970   Data:  02 00 00 00
TAAEC 000:207.986 - 0.661ms returns 1 (0x1)
TAAEC 000:207.995 JLINK_ReadMemU32(0xE000E004, 0x1 Items)
TAAEC 000:208.003   CPU_ReadMem(4 bytes @ 0xE000E004)
TAAEC 000:208.614   Data:  02 00 00 00
TAAEC 000:208.627 - 0.631ms returns 1 (0x1)
TAAEC 000:208.637 JLINK_WriteMemEx(0xE0001000, 0x0000001C Bytes, Flags = 0x02000004)
TAAEC 000:208.644   Data:  01 00 00 00 00 00 00 00 00 00 00 00 00 00 00 00 ...
TAAEC 000:208.659   CPU_WriteMem(28 bytes @ 0xE0001000)
TAAEC 000:209.481 - 0.844ms returns 0x1C
TAAEC 000:209.501 JLINK_HasError()
TAAEC 000:209.510 JLINK_ReadReg(R15 (PC))
TAAEC 000:209.518 - 0.008ms returns 0x000001E4
TAAEC 000:209.526 JLINK_ReadReg(XPSR)
TAAEC 000:209.533 - 0.007ms returns 0x01000000
TAAEC 000:222.006 JLINK_ReadMemEx(0xE0001004, 0x4 Bytes, Flags = 0x02000000)
TAAEC 000:222.070   Data:  00 00 00 00
TAAEC 000:222.083   Debug reg: DWT_CYCCNT
TAAEC 000:222.094 - 0.088ms returns 4 (0x4)
TAAEC 000:439.154 JLINK_HasError()
TAAEC 000:439.205 JLINK_SetResetType(JLINKARM_CM3_RESET_TYPE_NORMAL)
TAAEC 000:439.215 - 0.009ms returns JLINKARM_CM3_RESET_TYPE_NORMAL
TAAEC 000:439.223 JLINK_Reset()
TAAEC 000:439.239   JLINK_GetResetTypeDesc
TAAEC 000:439.246   - 0.007ms 
TAAEC 000:439.274   Reset type: NORMAL (https://wiki.segger.com/J-Link_Reset_Strategies)
TAAEC 000:439.286   CPU_WriteMem(4 bytes @ 0xE000EDF0)
TAAEC 000:439.961   CPU_WriteMem(4 bytes @ 0xE000EDFC)
TAAEC 000:440.621   Reset: Halt core after reset via DEMCR.VC_CORERESET.
TAAEC 000:441.333   Reset: Reset device via AIRCR.SYSRESETREQ.
TAAEC 000:441.355   CPU_WriteMem(4 bytes @ 0xE000ED0C)
TAAEC 000:495.959   CPU_ReadMem(4 bytes @ 0xE000EDF0)
TAAEC 000:496.576   CPU_ReadMem(4 bytes @ 0xE000EDF0)
TAAEC 000:497.226   CPU_WriteMem(4 bytes @ 0xE000EDFC)
TAAEC 000:504.028   CPU_ReadMem(4 bytes @ 0xE000EDF0)
TAAEC 000:509.884   CPU_WriteMem(4 bytes @ 0xE0002000)
TAAEC 000:510.594   CPU_ReadMem(4 bytes @ 0xE000EDFC)
TAAEC 000:511.225   CPU_ReadMem(4 bytes @ 0xE0001000)
TAAEC 000:511.772 - 72.549ms 
TAAEC 000:513.554 JLINK_HasError()
TAAEC 000:513.574 JLINK_ReadReg(R15 (PC))
TAAEC 000:513.590 - 0.015ms returns 0x000001E4
TAAEC 000:513.598 JLINK_ReadReg(XPSR)
TAAEC 000:513.605 - 0.007ms returns 0x01000000
TAAEC 000:515.275 JLINK_ReadMemEx(0x000001E4, 0x3C Bytes, Flags = 0x02000000)
TAAEC 000:515.306   CPU_ReadMem(60 bytes @ 0x000001E4)
TAAEC 000:516.548   Data:  06 48 00 47 FE E7 FE E7 FE E7 FE E7 FE E7 FE E7 ...
TAAEC 000:516.564 - 1.289ms returns 60 (0x3C)
TAAEC 000:516.574 JLINK_ReadMemEx(0x000001E4, 0x2 Bytes, Flags = 0x02000000)
TAAEC 000:516.582   CPU_ReadMem(2 bytes @ 0x000001E4)
TAAEC 000:517.222   Data:  06 48
TAAEC 000:517.238 - 0.664ms returns 2 (0x2)
TAAEC 000:517.249 JLINK_ReadMemEx(0x000001E6, 0x2 Bytes, Flags = 0x02000000)
TAAEC 000:517.261   CPU_ReadMem(2 bytes @ 0x000001E6)
TAAEC 000:518.083   Data:  00 47
TAAEC 000:518.100 - 0.850ms returns 2 (0x2)
TAAEC 000:518.165 JLINK_ReadMemEx(0x000001E6, 0x2 Bytes, Flags = 0x02000000)
TAAEC 000:518.176   CPU_ReadMem(2 bytes @ 0x000001E6)
TAAEC 000:518.771   Data:  00 47
TAAEC 000:518.783 - 0.618ms returns 2 (0x2)
TAAEC 000:518.792 JLINK_ReadMemEx(0x000001E8, 0x3C Bytes, Flags = 0x02000000)
TAAEC 000:518.801   CPU_ReadMem(60 bytes @ 0x000001E8)
TAAEC 000:520.022   Data:  FE E7 FE E7 FE E7 FE E7 FE E7 FE E7 FE E7 FE E7 ...
TAAEC 000:520.033 - 1.241ms returns 60 (0x3C)
TAAEC 000:520.042 JLINK_ReadMemEx(0x000001E8, 0x2 Bytes, Flags = 0x02000000)
TAAEC 000:520.050   CPU_ReadMem(2 bytes @ 0x000001E8)
TAAEC 000:520.700   Data:  FE E7
TAAEC 000:520.712 - 0.669ms returns 2 (0x2)
TAAEC 000:520.740 JLINK_ReadMemEx(0x000001E8, 0x3C Bytes, Flags = 0x02000000)
TAAEC 000:520.749   CPU_ReadMem(60 bytes @ 0x000001E8)
TAAEC 000:521.982   Data:  FE E7 FE E7 FE E7 FE E7 FE E7 FE E7 FE E7 FE E7 ...
TAAEC 000:521.994 - 1.254ms returns 60 (0x3C)
TAAEC 000:522.002 JLINK_ReadMemEx(0x000001E8, 0x2 Bytes, Flags = 0x02000000)
TAAEC 000:522.011   CPU_ReadMem(2 bytes @ 0x000001E8)
TAAEC 000:522.554   Data:  FE E7
TAAEC 000:522.566 - 0.563ms returns 2 (0x2)
TAAEC 000:522.574 JLINK_ReadMemEx(0x000001EA, 0x2 Bytes, Flags = 0x02000000)
TAAEC 000:522.582   CPU_ReadMem(2 bytes @ 0x000001EA)
TAAEC 000:523.166   Data:  FE E7
TAAEC 000:523.260 - 0.685ms returns 2 (0x2)
TAAEC 000:523.362 JLINK_ReadMemEx(0x000001EA, 0x2 Bytes, Flags = 0x02000000)
TAAEC 000:523.386   CPU_ReadMem(2 bytes @ 0x000001EA)
TAAEC 000:523.997   Data:  FE E7
TAAEC 000:524.019 - 0.657ms returns 2 (0x2)
TAAEC 000:524.029 JLINK_ReadMemEx(0x000001EC, 0x3C Bytes, Flags = 0x02000000)
TAAEC 000:524.040   CPU_ReadMem(60 bytes @ 0x000001EC)
TAAEC 000:525.336   Data:  FE E7 FE E7 FE E7 FE E7 FE E7 FE E7 FE E7 FE E7 ...
TAAEC 000:525.350 - 1.320ms returns 60 (0x3C)
TAAEC 000:525.359 JLINK_ReadMemEx(0x000001EC, 0x2 Bytes, Flags = 0x02000000)
TAAEC 000:525.368   CPU_ReadMem(2 bytes @ 0x000001EC)
TAAEC 000:526.151   Data:  FE E7
TAAEC 000:526.166 - 0.806ms returns 2 (0x2)
TAAEC 004:855.221 JLINK_ReadMemEx(0x000001EC, 0x3C Bytes, Flags = 0x02000000)
TAAEC 004:855.287   CPU_ReadMem(60 bytes @ 0x000001EC)
TAAEC 004:856.631   Data:  FE E7 FE E7 FE E7 FE E7 FE E7 FE E7 FE E7 FE E7 ...
TAAEC 004:856.717 - 1.477ms returns 60 (0x3C)
TAAEC 004:856.772 JLINK_ReadMemEx(0x000001EC, 0x2 Bytes, Flags = 0x02000000)
TAAEC 004:856.789   CPU_ReadMem(2 bytes @ 0x000001EC)
TAAEC 004:857.403   Data:  FE E7
TAAEC 004:857.421 - 0.653ms returns 2 (0x2)
TAAEC 004:857.434 JLINK_ReadMemEx(0x000001EE, 0x2 Bytes, Flags = 0x02000000)
TAAEC 004:857.445   CPU_ReadMem(2 bytes @ 0x000001EE)
TAAEC 004:858.101   Data:  FE E7
TAAEC 004:858.117 - 0.683ms returns 2 (0x2)
TAAEC 005:759.257 JLINK_HasError()
TAAEC 005:759.333 JLINK_ReadReg(R0)
TAAEC 005:760.015 - 0.681ms returns 0x0020291A
TAAEC 005:760.028 JLINK_ReadReg(R1)
TAAEC 005:760.036 - 0.007ms returns 0x03DA0000
TAAEC 005:760.044 JLINK_ReadReg(R2)
TAAEC 005:760.051 - 0.006ms returns 0x0000F680
TAAEC 005:760.058 JLINK_ReadReg(R3)
TAAEC 005:760.066 - 0.007ms returns 0x07B40000
TAAEC 005:760.073 JLINK_ReadReg(R4)
TAAEC 005:760.081 - 0.007ms returns 0x000793B3
TAAEC 005:760.088 JLINK_ReadReg(R5)
TAAEC 005:760.095 - 0.006ms returns 0x000793AD
TAAEC 005:760.102 JLINK_ReadReg(R6)
TAAEC 005:760.109 - 0.006ms returns 0x4000A000
TAAEC 005:760.117 JLINK_ReadReg(R7)
TAAEC 005:760.137 - 0.020ms returns 0x00000000
TAAEC 005:760.153 JLINK_ReadReg(R8)
TAAEC 005:760.161 - 0.016ms returns 0x20002CBC
TAAEC 005:760.168 JLINK_ReadReg(R9)
TAAEC 005:760.175 - 0.006ms returns 0x0009D000
TAAEC 005:760.182 JLINK_ReadReg(R10)
TAAEC 005:760.189 - 0.006ms returns 0x00080000
TAAEC 005:760.197 JLINK_ReadReg(R11)
TAAEC 005:760.203 - 0.006ms returns 0x0007E948
TAAEC 005:760.211 JLINK_ReadReg(R12)
TAAEC 005:760.217 - 0.006ms returns 0x00000000
TAAEC 005:760.225 JLINK_ReadReg(R13 (SP))
TAAEC 005:760.233 - 0.007ms returns 0x20006000
TAAEC 005:760.240 JLINK_ReadReg(R14)
TAAEC 005:760.247 - 0.006ms returns 0xFFFFFFFF
TAAEC 005:760.254 JLINK_ReadReg(R15 (PC))
TAAEC 005:760.261 - 0.007ms returns 0x000001E4
TAAEC 005:760.269 JLINK_ReadReg(XPSR)
TAAEC 005:760.275 - 0.006ms returns 0x01000000
TAAEC 005:760.283 JLINK_ReadReg(MSP)
TAAEC 005:760.289 - 0.006ms returns 0x20006000
TAAEC 005:760.297 JLINK_ReadReg(PSP)
TAAEC 005:760.304 - 0.006ms returns 0x20008000
TAAEC 005:760.311 JLINK_ReadReg(CFBP)
TAAEC 005:760.317 - 0.006ms returns 0x00000000
TAAEC 005:760.325 JLINK_ReadReg(FPSCR)
TAAEC 005:768.744 - 8.417ms returns 0x00000000
TAAEC 005:768.790 JLINK_ReadReg(FPS0)
TAAEC 005:768.801 - 0.011ms returns 0x00000000
TAAEC 005:768.811 JLINK_ReadReg(FPS1)
TAAEC 005:768.819 - 0.008ms returns 0x00000000
TAAEC 005:768.829 JLINK_ReadReg(FPS2)
TAAEC 005:768.837 - 0.008ms returns 0x00000000
TAAEC 005:768.847 JLINK_ReadReg(FPS3)
TAAEC 005:768.854 - 0.007ms returns 0x40590000
TAAEC 005:768.864 JLINK_ReadReg(FPS4)
TAAEC 005:768.872 - 0.008ms returns 0x00000000
TAAEC 005:768.882 JLINK_ReadReg(FPS5)
TAAEC 005:768.890 - 0.007ms returns 0x00000000
TAAEC 005:768.899 JLINK_ReadReg(FPS6)
TAAEC 005:768.907 - 0.008ms returns 0x00000000
TAAEC 005:768.917 JLINK_ReadReg(FPS7)
TAAEC 005:768.925 - 0.007ms returns 0x00000000
TAAEC 005:768.934 JLINK_ReadReg(FPS8)
TAAEC 005:768.942 - 0.007ms returns 0x00000000
TAAEC 005:768.951 JLINK_ReadReg(FPS9)
TAAEC 005:768.959 - 0.007ms returns 0x00000000
TAAEC 005:768.969 JLINK_ReadReg(FPS10)
TAAEC 005:768.977 - 0.007ms returns 0x00000000
TAAEC 005:768.986 JLINK_ReadReg(FPS11)
TAAEC 005:768.994 - 0.007ms returns 0x00000000
TAAEC 005:769.003 JLINK_ReadReg(FPS12)
TAAEC 005:769.011 - 0.007ms returns 0x00000000
TAAEC 005:769.020 JLINK_ReadReg(FPS13)
TAAEC 005:769.028 - 0.007ms returns 0x00000000
TAAEC 005:769.037 JLINK_ReadReg(FPS14)
TAAEC 005:769.045 - 0.007ms returns 0x00000000
TAAEC 005:769.054 JLINK_ReadReg(FPS15)
TAAEC 005:769.062 - 0.007ms returns 0x00000000
TAAEC 005:769.072 JLINK_ReadReg(FPS16)
TAAEC 005:769.079 - 0.007ms returns 0x00000000
TAAEC 005:769.089 JLINK_ReadReg(FPS17)
TAAEC 005:769.097 - 0.007ms returns 0x00000000
TAAEC 005:769.106 JLINK_ReadReg(FPS18)
TAAEC 005:769.113 - 0.007ms returns 0x00000000
TAAEC 005:769.123 JLINK_ReadReg(FPS19)
TAAEC 005:769.130 - 0.007ms returns 0x00000000
TAAEC 005:769.140 JLINK_ReadReg(FPS20)
TAAEC 005:769.147 - 0.007ms returns 0x00000000
TAAEC 005:769.157 JLINK_ReadReg(FPS21)
TAAEC 005:769.164 - 0.007ms returns 0x00000000
TAAEC 005:769.173 JLINK_ReadReg(FPS22)
TAAEC 005:769.181 - 0.007ms returns 0x00000000
TAAEC 005:769.191 JLINK_ReadReg(FPS23)
TAAEC 005:769.198 - 0.007ms returns 0x00000000
TAAEC 005:769.207 JLINK_ReadReg(FPS24)
TAAEC 005:769.215 - 0.007ms returns 0x00000000
TAAEC 005:769.225 JLINK_ReadReg(FPS25)
TAAEC 005:769.232 - 0.007ms returns 0x00000000
TAAEC 005:769.246 JLINK_ReadReg(FPS26)
TAAEC 005:769.256 - 0.009ms returns 0x00000000
TAAEC 005:769.265 JLINK_ReadReg(FPS27)
TAAEC 005:769.273 - 0.007ms returns 0x00000000
TAAEC 005:769.283 JLINK_ReadReg(FPS28)
TAAEC 005:769.291 - 0.007ms returns 0x00000000
TAAEC 005:769.300 JLINK_ReadReg(FPS29)
TAAEC 005:769.308 - 0.007ms returns 0x00000000
TAAEC 005:769.317 JLINK_ReadReg(FPS30)
TAAEC 005:769.325 - 0.007ms returns 0x00000000
TAAEC 005:769.334 JLINK_ReadReg(FPS31)
TAAEC 005:769.341 - 0.007ms returns 0x00000000
TAAEC 005:834.278 JLINK_ReadMemEx(0x2000B62C, 0x1 Bytes, Flags = 0x02000000)
TAAEC 005:834.339   CPU_ReadMem(1 bytes @ 0x2000B62C)
TAAEC 005:835.063   Data:  00
TAAEC 005:835.097 - 0.818ms returns 1 (0x1)
TAAEC 005:850.849 JLINK_ReadMemEx(0x2000B62C, 0x1 Bytes, Flags = 0x02000000)
TAAEC 005:850.900   CPU_ReadMem(1 bytes @ 0x2000B62C)
TAAEC 005:851.551   Data:  00
TAAEC 005:851.565 - 0.716ms returns 1 (0x1)
TAAEC 005:851.614 JLINK_ReadMemEx(0x2000B62C, 0x1 Bytes, Flags = 0x02000000)
TAAEC 005:851.624   CPU_ReadMem(1 bytes @ 0x2000B62C)
TAAEC 005:852.255   Data:  00
TAAEC 005:852.271 - 0.657ms returns 1 (0x1)
TAAEC 005:968.669 JLINK_ReadMemEx(0x00106000, 0x1000 Bytes, Flags = 0x02000000)
TAAEC 005:968.721   CPU_ReadMem(4096 bytes @ 0x00106000)
TAAEC 006:014.018   Data:  1E F0 04 0F 14 BF EF F3 09 8C EC 46 0F B5 60 46 ...
TAAEC 006:014.055 - 45.386ms returns 4096 (0x1000)
TAAEC 006:014.155 JLINK_ReadMemEx(0x00107000, 0x14 Bytes, Flags = 0x02000000)
TAAEC 006:014.173   CPU_ReadMem(20 bytes @ 0x00107000)
TAAEC 006:015.039   Data:  00 A0 00 40 4C A8 00 40 2C BC 00 20 78 D4 00 40 ...
TAAEC 006:015.086 - 0.931ms returns 20 (0x14)
T94AC 006:039.583 JLINK_ReadMemEx(0x000001E4, 0x2 Bytes, Flags = 0x02000000)
T94AC 006:039.624   CPU_ReadMem(2 bytes @ 0x000001E4)
T94AC 006:040.322   Data:  06 48
T94AC 006:040.346 - 0.763ms returns 2 (0x2)
T94AC 006:040.359 JLINK_HasError()
T94AC 006:040.368 JLINK_SetBPEx(Addr = 0x00239638, Type = 0xFFFFFFF2)
T94AC 006:040.379 - 0.011ms returns 0x00000001
T94AC 006:040.387 JLINK_HasError()
T94AC 006:040.394 JLINK_SetBPEx(Addr = 0x0021AABC, Type = 0xFFFFFFF2)
T94AC 006:040.402 - 0.007ms returns 0x00000002
T94AC 006:040.409 JLINK_HasError()
T94AC 006:040.417 JLINK_SetBPEx(Addr = 0x0021AAF2, Type = 0xFFFFFFF2)
T94AC 006:040.424 - 0.007ms returns 0x00000003
T94AC 006:040.431 JLINK_HasError()
T94AC 006:040.439 JLINK_HasError()
T94AC 006:040.447 JLINK_Go()
T94AC 006:040.458   CPU_WriteMem(4 bytes @ 0xE0002000)
T94AC 006:041.274   CPU_WriteMem(4 bytes @ 0xE0002000)
T94AC 006:041.943   CPU_WriteMem(4 bytes @ 0xE0002000)
T94AC 006:042.685   CPU_WriteMem(4 bytes @ 0xE0002028)
T94AC 006:043.365   CPU_WriteMem(4 bytes @ 0xE000202C)
T94AC 006:043.996   CPU_WriteMem(4 bytes @ 0xE0002030)
T94AC 006:044.688   CPU_WriteMem(4 bytes @ 0xE0002034)
T94AC 006:045.394   CPU_WriteMem(4 bytes @ 0xE0002038)
T94AC 006:046.029   CPU_WriteMem(4 bytes @ 0xE000203C)
T94AC 006:046.714   CPU_WriteMem(4 bytes @ 0xE0002040)
T94AC 006:047.394   CPU_ReadMem(4 bytes @ 0xE0001000)
T94AC 006:048.173   CPU_WriteMem(4 bytes @ 0xE0002008)
T94AC 006:048.225   CPU_WriteMem(4 bytes @ 0xE000200C)
T94AC 006:048.251   CPU_WriteMem(4 bytes @ 0xE0002010)
T94AC 006:048.279   CPU_WriteMem(4 bytes @ 0xE0002014)
T94AC 006:048.303   CPU_WriteMem(4 bytes @ 0xE0002018)
T94AC 006:048.327   CPU_WriteMem(4 bytes @ 0xE000201C)
T94AC 006:048.351   CPU_WriteMem(4 bytes @ 0xE0002020)
T94AC 006:048.376   CPU_WriteMem(4 bytes @ 0xE0002024)
T94AC 006:051.334   CPU_WriteMem(4 bytes @ 0xE0001004)
T94AC 006:055.254   Memory map 'after startup completion point' is active
T94AC 006:055.351 - 14.903ms 
T94AC 006:155.931 JLINK_HasError()
T94AC 006:155.962 JLINK_IsHalted()
T94AC 006:156.677 - 0.714ms returns FALSE
T94AC 006:257.391 JLINK_HasError()
T94AC 006:257.431 JLINK_IsHalted()
T94AC 006:258.155 - 0.722ms returns FALSE
T94AC 006:358.610 JLINK_HasError()
T94AC 006:358.686 JLINK_IsHalted()
T94AC 006:359.513 - 0.827ms returns FALSE
T94AC 006:461.084 JLINK_HasError()
T94AC 006:461.129 JLINK_IsHalted()
T94AC 006:461.863 - 0.734ms returns FALSE
T94AC 006:562.023 JLINK_HasError()
T94AC 006:562.078 JLINK_IsHalted()
T94AC 006:562.777 - 0.699ms returns FALSE
T94AC 006:663.337 JLINK_HasError()
T94AC 006:663.389 JLINK_IsHalted()
T94AC 006:664.119 - 0.730ms returns FALSE
T94AC 006:764.752 JLINK_HasError()
T94AC 006:764.844 JLINK_IsHalted()
T94AC 006:765.612 - 0.766ms returns FALSE
T94AC 006:866.394 JLINK_HasError()
T94AC 006:866.437 JLINK_IsHalted()
T94AC 006:867.168 - 0.730ms returns FALSE
T94AC 006:967.758 JLINK_HasError()
T94AC 006:967.815 JLINK_IsHalted()
T94AC 006:968.598 - 0.781ms returns FALSE
T94AC 007:069.466 JLINK_HasError()
T94AC 007:069.506 JLINK_IsHalted()
T94AC 007:070.257 - 0.749ms returns FALSE
T94AC 007:171.399 JLINK_HasError()
T94AC 007:171.436 JLINK_IsHalted()
T94AC 007:172.107 - 0.670ms returns FALSE
T94AC 007:272.863 JLINK_HasError()
T94AC 007:272.913 JLINK_IsHalted()
T94AC 007:273.601 - 0.686ms returns FALSE
T94AC 007:374.243 JLINK_HasError()
T94AC 007:374.328 JLINK_IsHalted()
T94AC 007:375.057 - 0.728ms returns FALSE
T94AC 007:476.072 JLINK_HasError()
T94AC 007:476.149 JLINK_IsHalted()
T94AC 007:481.547 - 5.397ms returns TRUE
T94AC 007:481.572 JLINK_HasError()
T94AC 007:481.581 JLINK_Halt()
T94AC 007:481.589 - 0.008ms returns 0x00
T94AC 007:481.597 JLINK_IsHalted()
T94AC 007:481.604 - 0.006ms returns TRUE
T94AC 007:481.611 JLINK_IsHalted()
T94AC 007:481.617 - 0.006ms returns TRUE
T94AC 007:481.626 JLINK_IsHalted()
T94AC 007:481.633 - 0.007ms returns TRUE
T94AC 007:481.642 JLINK_HasError()
T94AC 007:481.651 JLINK_ReadReg(R15 (PC))
T94AC 007:481.661 - 0.009ms returns 0x00239638
T94AC 007:481.668 JLINK_ReadReg(XPSR)
T94AC 007:481.675 - 0.007ms returns 0x61000000
T94AC 007:481.686 JLINK_HasError()
T94AC 007:481.694 JLINK_ClrBPEx(BPHandle = 0x00000001)
T94AC 007:481.702 - 0.007ms returns 0x00
T94AC 007:481.710 JLINK_HasError()
T94AC 007:481.717 JLINK_ClrBPEx(BPHandle = 0x00000002)
T94AC 007:481.725 - 0.006ms returns 0x00
T94AC 007:481.733 JLINK_HasError()
T94AC 007:481.740 JLINK_ClrBPEx(BPHandle = 0x00000003)
T94AC 007:481.747 - 0.006ms returns 0x00
T94AC 007:481.754 JLINK_HasError()
T94AC 007:481.761 JLINK_HasError()
T94AC 007:481.769 JLINK_ReadMemU32(0xE000ED30, 0x1 Items)
T94AC 007:481.782   CPU_ReadMem(4 bytes @ 0xE000ED30)
T94AC 007:482.496   Data:  02 00 00 00
T94AC 007:482.518 - 0.748ms returns 1 (0x1)
T94AC 007:482.529 JLINK_ReadMemU32(0xE0001028, 0x1 Items)
T94AC 007:482.539   CPU_ReadMem(4 bytes @ 0xE0001028)
T94AC 007:483.257   Data:  00 00 00 00
T94AC 007:483.328   Debug reg: DWT_FUNC[0]
T94AC 007:483.379 - 0.850ms returns 1 (0x1)
T94AC 007:483.403 JLINK_ReadMemU32(0xE0001038, 0x1 Items)
T94AC 007:483.430   CPU_ReadMem(4 bytes @ 0xE0001038)
T94AC 007:484.141   Data:  00 02 00 00
T94AC 007:484.190   Debug reg: DWT_FUNC[1]
T94AC 007:484.205 - 0.802ms returns 1 (0x1)
T94AC 007:484.217 JLINK_ReadMemU32(0xE0001048, 0x1 Items)
T94AC 007:484.228   CPU_ReadMem(4 bytes @ 0xE0001048)
T94AC 007:484.862   Data:  00 00 00 00
T94AC 007:484.886   Debug reg: DWT_FUNC[2]
T94AC 007:484.897 - 0.680ms returns 1 (0x1)
T94AC 007:484.907 JLINK_ReadMemU32(0xE0001058, 0x1 Items)
T94AC 007:484.918   CPU_ReadMem(4 bytes @ 0xE0001058)
T94AC 007:485.568   Data:  00 00 00 00
T94AC 007:485.582   Debug reg: DWT_FUNC[3]
T94AC 007:485.592 - 0.684ms returns 1 (0x1)
T94AC 007:487.413 JLINK_HasError()
T94AC 007:487.458 JLINK_ReadReg(R0)
T94AC 007:487.470 - 0.012ms returns 0x00239639
T94AC 007:487.478 JLINK_ReadReg(R1)
T94AC 007:487.485 - 0.006ms returns 0x00000000
T94AC 007:487.493 JLINK_ReadReg(R2)
T94AC 007:487.500 - 0.006ms returns 0x200037C0
T94AC 007:487.508 JLINK_ReadReg(R3)
T94AC 007:487.514 - 0.006ms returns 0x2000B400
T94AC 007:487.522 JLINK_ReadReg(R4)
T94AC 007:487.529 - 0.006ms returns 0x0024FB20
T94AC 007:487.536 JLINK_ReadReg(R5)
T94AC 007:487.543 - 0.007ms returns 0x0024FB20
T94AC 007:487.550 JLINK_ReadReg(R6)
T94AC 007:487.557 - 0.006ms returns 0x00000000
T94AC 007:487.565 JLINK_ReadReg(R7)
T94AC 007:487.572 - 0.006ms returns 0x0007E917
T94AC 007:487.593 JLINK_ReadReg(R8)
T94AC 007:487.599 - 0.006ms returns 0x20002CBC
T94AC 007:487.606 JLINK_ReadReg(R9)
T94AC 007:487.613 - 0.007ms returns 0x0009D000
T94AC 007:487.621 JLINK_ReadReg(R10)
T94AC 007:487.628 - 0.006ms returns 0x0007E948
T94AC 007:487.635 JLINK_ReadReg(R11)
T94AC 007:487.641 - 0.006ms returns 0x0007E948
T94AC 007:487.649 JLINK_ReadReg(R12)
T94AC 007:487.656 - 0.006ms returns 0x4000E400
T94AC 007:487.664 JLINK_ReadReg(R13 (SP))
T94AC 007:487.671 - 0.007ms returns 0x20047078
T94AC 007:487.678 JLINK_ReadReg(R14)
T94AC 007:487.685 - 0.006ms returns 0x0022B6FD
T94AC 007:487.693 JLINK_ReadReg(R15 (PC))
T94AC 007:487.699 - 0.007ms returns 0x00239638
T94AC 007:487.707 JLINK_ReadReg(XPSR)
T94AC 007:487.713 - 0.006ms returns 0x61000000
T94AC 007:487.721 JLINK_ReadReg(MSP)
T94AC 007:487.728 - 0.006ms returns 0x20047078
T94AC 007:487.736 JLINK_ReadReg(PSP)
T94AC 007:487.742 - 0.006ms returns 0x20008000
T94AC 007:487.749 JLINK_ReadReg(CFBP)
T94AC 007:487.757 - 0.006ms returns 0x04000000
T94AC 007:487.765 JLINK_ReadReg(FPSCR)
T94AC 007:496.130 - 8.364ms returns 0x00000000
T94AC 007:496.178 JLINK_ReadReg(FPS0)
T94AC 007:496.189 - 0.010ms returns 0xDE5F715E
T94AC 007:496.199 JLINK_ReadReg(FPS1)
T94AC 007:496.207 - 0.007ms returns 0x400A6EFE
T94AC 007:496.217 JLINK_ReadReg(FPS2)
T94AC 007:496.225 - 0.007ms returns 0x00000000
T94AC 007:496.233 JLINK_ReadReg(FPS3)
T94AC 007:496.241 - 0.007ms returns 0x40590000
T94AC 007:496.250 JLINK_ReadReg(FPS4)
T94AC 007:496.257 - 0.007ms returns 0x00000000
T94AC 007:496.267 JLINK_ReadReg(FPS5)
T94AC 007:496.275 - 0.007ms returns 0x00000000
T94AC 007:496.284 JLINK_ReadReg(FPS6)
T94AC 007:496.309 - 0.024ms returns 0x00000000
T94AC 007:496.317 JLINK_ReadReg(FPS7)
T94AC 007:496.325 - 0.007ms returns 0x00000000
T94AC 007:496.335 JLINK_ReadReg(FPS8)
T94AC 007:496.342 - 0.007ms returns 0x00000000
T94AC 007:496.352 JLINK_ReadReg(FPS9)
T94AC 007:496.359 - 0.007ms returns 0x00000000
T94AC 007:496.369 JLINK_ReadReg(FPS10)
T94AC 007:496.376 - 0.007ms returns 0x00000000
T94AC 007:496.385 JLINK_ReadReg(FPS11)
T94AC 007:496.393 - 0.007ms returns 0x00000000
T94AC 007:496.402 JLINK_ReadReg(FPS12)
T94AC 007:496.409 - 0.007ms returns 0x00000000
T94AC 007:496.419 JLINK_ReadReg(FPS13)
T94AC 007:496.426 - 0.007ms returns 0x00000000
T94AC 007:496.436 JLINK_ReadReg(FPS14)
T94AC 007:496.449 - 0.013ms returns 0x00000000
T94AC 007:496.464 JLINK_ReadReg(FPS15)
T94AC 007:496.477 - 0.012ms returns 0x00000000
T94AC 007:496.485 JLINK_ReadReg(FPS16)
T94AC 007:496.493 - 0.007ms returns 0x00000000
T94AC 007:496.502 JLINK_ReadReg(FPS17)
T94AC 007:496.510 - 0.007ms returns 0x00000000
T94AC 007:496.519 JLINK_ReadReg(FPS18)
T94AC 007:496.527 - 0.007ms returns 0x00000000
T94AC 007:496.536 JLINK_ReadReg(FPS19)
T94AC 007:496.544 - 0.007ms returns 0x00000000
T94AC 007:496.553 JLINK_ReadReg(FPS20)
T94AC 007:496.561 - 0.007ms returns 0x00000000
T94AC 007:496.569 JLINK_ReadReg(FPS21)
T94AC 007:496.577 - 0.007ms returns 0x00000000
T94AC 007:496.586 JLINK_ReadReg(FPS22)
T94AC 007:496.594 - 0.008ms returns 0x00000000
T94AC 007:496.603 JLINK_ReadReg(FPS23)
T94AC 007:496.611 - 0.007ms returns 0x00000000
T94AC 007:496.621 JLINK_ReadReg(FPS24)
T94AC 007:496.628 - 0.007ms returns 0x00000000
T94AC 007:496.637 JLINK_ReadReg(FPS25)
T94AC 007:496.645 - 0.007ms returns 0x00000000
T94AC 007:496.653 JLINK_ReadReg(FPS26)
T94AC 007:496.661 - 0.007ms returns 0x00000000
T94AC 007:496.670 JLINK_ReadReg(FPS27)
T94AC 007:496.678 - 0.007ms returns 0x00000000
T94AC 007:496.687 JLINK_ReadReg(FPS28)
T94AC 007:496.694 - 0.007ms returns 0x00000000
T94AC 007:496.704 JLINK_ReadReg(FPS29)
T94AC 007:496.711 - 0.007ms returns 0x00000000
T94AC 007:496.721 JLINK_ReadReg(FPS30)
T94AC 007:496.729 - 0.007ms returns 0x00000000
T94AC 007:496.738 JLINK_ReadReg(FPS31)
T94AC 007:496.746 - 0.007ms returns 0x00000000
T94AC 007:496.800 JLINK_ReadMemEx(0x2000B5D8, 0x4 Bytes, Flags = 0x02000000)
T94AC 007:496.836   CPU_ReadMem(4 bytes @ 0x2000B5D8)
T94AC 007:497.549   Data:  00 00 00 00
T94AC 007:497.564 - 0.764ms returns 4 (0x4)
TAAEC 007:500.294 JLINK_ReadMemEx(0xE000ED28, 0x4 Bytes, Flags = 0x02000000)
TAAEC 007:500.325   CPU_ReadMem(4 bytes @ 0xE000ED28)
TAAEC 007:500.992   Data:  00 00 00 00
TAAEC 007:501.017 - 0.723ms returns 4 (0x4)
TAAEC 007:505.309 JLINK_ReadMemEx(0x2000B62C, 0x1 Bytes, Flags = 0x02000000)
TAAEC 007:505.340   CPU_ReadMem(1 bytes @ 0x2000B62C)
TAAEC 007:505.946   Data:  00
TAAEC 007:505.972 - 0.663ms returns 1 (0x1)
TAAEC 007:507.666 JLINK_ReadMemEx(0x00239638, 0x3C Bytes, Flags = 0x02000000)
TAAEC 007:507.697   CPU_ReadMem(128 bytes @ 0x00239600)
TAAEC 007:509.721    -- Updating DA cache (128 bytes @ 0x00239600)
TAAEC 007:509.744    -- Read from DA cache (60 bytes @ 0x00239638)
TAAEC 007:509.755   Data:  00 20 E6 F7 89 FE F2 F7 49 F8 05 A1 00 20 E6 F7 ...
TAAEC 007:509.765 - 2.099ms returns 60 (0x3C)
TAAEC 007:509.776 JLINK_ReadMemEx(0x00239638, 0x2 Bytes, Flags = 0x02000000)
TAAEC 007:509.785    -- Read from DA cache (2 bytes @ 0x00239638)
TAAEC 007:509.794   Data:  00 20
TAAEC 007:509.805 - 0.029ms returns 2 (0x2)
TAAEC 007:509.869 JLINK_ReadMemEx(0x0023963A, 0x2 Bytes, Flags = 0x02000000)
TAAEC 007:509.877    -- Read from DA cache (2 bytes @ 0x0023963A)
TAAEC 007:509.886   Data:  E6 F7
TAAEC 007:509.897 - 0.028ms returns 2 (0x2)
TAAEC 007:509.913 JLINK_ReadMemEx(0x0023963A, 0x2 Bytes, Flags = 0x02000000)
TAAEC 007:509.923    -- Read from DA cache (2 bytes @ 0x0023963A)
TAAEC 007:509.933   Data:  E6 F7
TAAEC 007:509.944 - 0.030ms returns 2 (0x2)
TAAEC 007:509.952 JLINK_ReadMemEx(0x0023963C, 0x3C Bytes, Flags = 0x02000000)
TAAEC 007:509.960    -- Read from DA cache (60 bytes @ 0x0023963C)
TAAEC 007:509.969   Data:  89 FE F2 F7 49 F8 05 A1 00 20 E6 F7 5D FD DA F7 ...
TAAEC 007:509.979 - 0.027ms returns 60 (0x3C)
TAAEC 007:509.987 JLINK_ReadMemEx(0x0023963C, 0x2 Bytes, Flags = 0x02000000)
TAAEC 007:509.994    -- Read from DA cache (2 bytes @ 0x0023963C)
TAAEC 007:510.005   Data:  89 FE
TAAEC 007:510.015 - 0.028ms returns 2 (0x2)
T94AC 030:489.334 JLINK_ReadMemEx(0x00239638, 0x2 Bytes, Flags = 0x02000000)
T94AC 030:489.392    -- Read from DA cache (2 bytes @ 0x00239638)
T94AC 030:489.402   Data:  00 20
T94AC 030:489.414 - 0.080ms returns 2 (0x2)
T94AC 030:489.424 JLINK_HasError()
T94AC 030:489.434 JLINK_SetBPEx(Addr = 0x0021AABC, Type = 0xFFFFFFF2)
T94AC 030:489.444 - 0.009ms returns 0x00000004
T94AC 030:489.450 JLINK_HasError()
T94AC 030:489.456 JLINK_SetBPEx(Addr = 0x0021AAF2, Type = 0xFFFFFFF2)
T94AC 030:489.466 - 0.007ms returns 0x00000005
T94AC 030:489.472 JLINK_HasError()
T94AC 030:489.478 JLINK_HasError()
T94AC 030:489.488 JLINK_Go()
T94AC 030:490.416   CPU_WriteMem(4 bytes @ 0xE0002000)
T94AC 030:491.396   CPU_WriteMem(4 bytes @ 0xE0002000)
T94AC 030:492.304   CPU_WriteMem(4 bytes @ 0xE0002028)
T94AC 030:493.094   CPU_WriteMem(4 bytes @ 0xE000202C)
T94AC 030:493.940   CPU_WriteMem(4 bytes @ 0xE0002030)
T94AC 030:494.740   CPU_WriteMem(4 bytes @ 0xE0002034)
T94AC 030:495.600   CPU_WriteMem(4 bytes @ 0xE0002038)
T94AC 030:496.236   CPU_WriteMem(4 bytes @ 0xE000203C)
T94AC 030:497.072   CPU_WriteMem(4 bytes @ 0xE0002040)
T94AC 030:497.856   CPU_ReadMem(4 bytes @ 0xE0001000)
T94AC 030:498.666   CPU_WriteMem(4 bytes @ 0xE0002008)
T94AC 030:498.732   CPU_WriteMem(4 bytes @ 0xE000200C)
T94AC 030:498.762   CPU_WriteMem(4 bytes @ 0xE0002010)
T94AC 030:501.168 - 11.677ms 
T94AC 030:601.508 JLINK_HasError()
T94AC 030:601.562 JLINK_IsHalted()
T94AC 030:607.412 - 5.848ms returns TRUE
T94AC 030:607.460 JLINK_HasError()
T94AC 030:607.476 JLINK_Halt()
T94AC 030:607.492 - 0.014ms returns 0x00
T94AC 030:607.508 JLINK_IsHalted()
T94AC 030:607.520 - 0.014ms returns TRUE
T94AC 030:607.536 JLINK_IsHalted()
T94AC 030:607.548 - 0.013ms returns TRUE
T94AC 030:607.564 JLINK_IsHalted()
T94AC 030:607.578 - 0.013ms returns TRUE
T94AC 030:607.594 JLINK_HasError()
T94AC 030:607.610 JLINK_ReadReg(R15 (PC))
T94AC 030:607.628 - 0.017ms returns 0x0021AABC
T94AC 030:607.644 JLINK_ReadReg(XPSR)
T94AC 030:607.668 - 0.023ms returns 0x41000000
T94AC 030:607.692 JLINK_HasError()
T94AC 030:607.708 JLINK_ClrBPEx(BPHandle = 0x00000004)
T94AC 030:607.724 - 0.015ms returns 0x00
T94AC 030:607.738 JLINK_HasError()
T94AC 030:607.754 JLINK_ClrBPEx(BPHandle = 0x00000005)
T94AC 030:607.766 - 0.014ms returns 0x00
T94AC 030:607.782 JLINK_HasError()
T94AC 030:607.796 JLINK_HasError()
T94AC 030:607.812 JLINK_ReadMemU32(0xE000ED30, 0x1 Items)
T94AC 030:607.834   CPU_ReadMem(4 bytes @ 0xE000ED30)
T94AC 030:608.636   Data:  02 00 00 00
T94AC 030:608.666 - 0.854ms returns 1 (0x1)
T94AC 030:608.678 JLINK_ReadMemU32(0xE0001028, 0x1 Items)
T94AC 030:608.692   CPU_ReadMem(4 bytes @ 0xE0001028)
T94AC 030:609.498   Data:  00 00 00 00
T94AC 030:609.546   Debug reg: DWT_FUNC[0]
T94AC 030:609.562 - 0.883ms returns 1 (0x1)
T94AC 030:609.572 JLINK_ReadMemU32(0xE0001038, 0x1 Items)
T94AC 030:609.580   CPU_ReadMem(4 bytes @ 0xE0001038)
T94AC 030:610.340   Data:  00 02 00 00
T94AC 030:610.358   Debug reg: DWT_FUNC[1]
T94AC 030:610.372 - 0.800ms returns 1 (0x1)
T94AC 030:610.394 JLINK_ReadMemU32(0xE0001048, 0x1 Items)
T94AC 030:610.406   CPU_ReadMem(4 bytes @ 0xE0001048)
T94AC 030:611.258   Data:  00 00 00 00
T94AC 030:611.284   Debug reg: DWT_FUNC[2]
T94AC 030:611.292 - 0.897ms returns 1 (0x1)
T94AC 030:611.308 JLINK_ReadMemU32(0xE0001058, 0x1 Items)
T94AC 030:611.322   CPU_ReadMem(4 bytes @ 0xE0001058)
T94AC 030:612.118   Data:  00 00 00 00
T94AC 030:612.134   Debug reg: DWT_FUNC[3]
T94AC 030:612.148 - 0.836ms returns 1 (0x1)
T94AC 030:613.948 JLINK_HasError()
T94AC 030:613.990 JLINK_ReadReg(R0)
T94AC 030:614.004 - 0.012ms returns 0x00000000
T94AC 030:614.010 JLINK_ReadReg(R1)
T94AC 030:614.016 - 0.007ms returns 0x2000B654
T94AC 030:614.022 JLINK_ReadReg(R2)
T94AC 030:614.032 - 0.006ms returns 0xFFFFFFFF
T94AC 030:614.038 JLINK_ReadReg(R3)
T94AC 030:614.044 - 0.006ms returns 0x00000000
T94AC 030:614.052 JLINK_ReadReg(R4)
T94AC 030:614.058 - 0.006ms returns 0x0024FB20
T94AC 030:614.068 JLINK_ReadReg(R5)
T94AC 030:614.074 - 0.006ms returns 0x0024FB20
T94AC 030:614.084 JLINK_ReadReg(R6)
T94AC 030:614.090 - 0.006ms returns 0x00000000
T94AC 030:614.096 JLINK_ReadReg(R7)
T94AC 030:614.102 - 0.006ms returns 0x0007E917
T94AC 030:614.108 JLINK_ReadReg(R8)
T94AC 030:614.116 - 0.006ms returns 0x20002CBC
T94AC 030:614.124 JLINK_ReadReg(R9)
T94AC 030:614.132 - 0.007ms returns 0x0009D000
T94AC 030:614.138 JLINK_ReadReg(R10)
T94AC 030:614.144 - 0.006ms returns 0x0007E948
T94AC 030:614.154 JLINK_ReadReg(R11)
T94AC 030:614.160 - 0.006ms returns 0x0007E948
T94AC 030:614.166 JLINK_ReadReg(R12)
T94AC 030:614.176 - 0.007ms returns 0x4000E400
T94AC 030:614.182 JLINK_ReadReg(R13 (SP))
T94AC 030:614.188 - 0.007ms returns 0x20046FD0
T94AC 030:614.198 JLINK_ReadReg(R14)
T94AC 030:614.204 - 0.006ms returns 0x0022AAF1
T94AC 030:614.212 JLINK_ReadReg(R15 (PC))
T94AC 030:614.218 - 0.007ms returns 0x0021AABC
T94AC 030:614.228 JLINK_ReadReg(XPSR)
T94AC 030:614.234 - 0.007ms returns 0x41000000
T94AC 030:614.240 JLINK_ReadReg(MSP)
T94AC 030:614.246 - 0.006ms returns 0x20046FD0
T94AC 030:614.256 JLINK_ReadReg(PSP)
T94AC 030:614.262 - 0.006ms returns 0x20008000
T94AC 030:614.268 JLINK_ReadReg(CFBP)
T94AC 030:614.276 - 0.006ms returns 0x04000000
T94AC 030:614.284 JLINK_ReadReg(FPSCR)
T94AC 030:622.778 - 8.493ms returns 0x00000000
T94AC 030:622.806 JLINK_ReadReg(FPS0)
T94AC 030:622.816 - 0.011ms returns 0xDE5F715E
T94AC 030:622.826 JLINK_ReadReg(FPS1)
T94AC 030:622.832 - 0.008ms returns 0x400A6EFE
T94AC 030:622.842 JLINK_ReadReg(FPS2)
T94AC 030:622.848 - 0.007ms returns 0x00000000
T94AC 030:622.854 JLINK_ReadReg(FPS3)
T94AC 030:622.864 - 0.006ms returns 0x40590000
T94AC 030:622.870 JLINK_ReadReg(FPS4)
T94AC 030:622.876 - 0.007ms returns 0x00000000
T94AC 030:622.886 JLINK_ReadReg(FPS5)
T94AC 030:622.892 - 0.008ms returns 0x00000000
T94AC 030:622.900 JLINK_ReadReg(FPS6)
T94AC 030:622.908 - 0.006ms returns 0x00000000
T94AC 030:622.916 JLINK_ReadReg(FPS7)
T94AC 030:622.922 - 0.006ms returns 0x00000000
T94AC 030:622.934 JLINK_ReadReg(FPS8)
T94AC 030:622.944 - 0.009ms returns 0x00000000
T94AC 030:622.950 JLINK_ReadReg(FPS9)
T94AC 030:622.956 - 0.006ms returns 0x00000000
T94AC 030:622.964 JLINK_ReadReg(FPS10)
T94AC 030:622.972 - 0.006ms returns 0x00000000
T94AC 030:622.980 JLINK_ReadReg(FPS11)
T94AC 030:622.986 - 0.006ms returns 0x00000000
T94AC 030:622.992 JLINK_ReadReg(FPS12)
T94AC 030:622.998 - 0.006ms returns 0x00000000
T94AC 030:623.008 JLINK_ReadReg(FPS13)
T94AC 030:623.014 - 0.007ms returns 0x00000000
T94AC 030:623.020 JLINK_ReadReg(FPS14)
T94AC 030:623.028 - 0.007ms returns 0x00000000
T94AC 030:623.036 JLINK_ReadReg(FPS15)
T94AC 030:623.044 - 0.006ms returns 0x00000000
T94AC 030:623.050 JLINK_ReadReg(FPS16)
T94AC 030:623.060 - 0.007ms returns 0x00000000
T94AC 030:623.066 JLINK_ReadReg(FPS17)
T94AC 030:623.072 - 0.006ms returns 0x00000000
T94AC 030:623.078 JLINK_ReadReg(FPS18)
T94AC 030:623.084 - 0.006ms returns 0x00000000
T94AC 030:623.094 JLINK_ReadReg(FPS19)
T94AC 030:623.100 - 0.006ms returns 0x00000000
T94AC 030:623.108 JLINK_ReadReg(FPS20)
T94AC 030:623.114 - 0.006ms returns 0x00000000
T94AC 030:623.120 JLINK_ReadReg(FPS21)
T94AC 030:623.130 - 0.006ms returns 0x00000000
T94AC 030:623.136 JLINK_ReadReg(FPS22)
T94AC 030:623.142 - 0.007ms returns 0x00000000
T94AC 030:623.148 JLINK_ReadReg(FPS23)
T94AC 030:623.156 - 0.006ms returns 0x00000000
T94AC 030:623.164 JLINK_ReadReg(FPS24)
T94AC 030:623.172 - 0.006ms returns 0x00000000
T94AC 030:623.178 JLINK_ReadReg(FPS25)
T94AC 030:623.184 - 0.006ms returns 0x00000000
T94AC 030:623.190 JLINK_ReadReg(FPS26)
T94AC 030:623.200 - 0.006ms returns 0x00000000
T94AC 030:623.206 JLINK_ReadReg(FPS27)
T94AC 030:623.212 - 0.006ms returns 0x00000000
T94AC 030:623.220 JLINK_ReadReg(FPS28)
T94AC 030:623.226 - 0.006ms returns 0x00000000
T94AC 030:623.236 JLINK_ReadReg(FPS29)
T94AC 030:623.242 - 0.006ms returns 0x00000000
T94AC 030:623.248 JLINK_ReadReg(FPS30)
T94AC 030:623.254 - 0.006ms returns 0x00000000
T94AC 030:623.260 JLINK_ReadReg(FPS31)
T94AC 030:623.270 - 0.006ms returns 0x00000000
T94AC 030:623.284 JLINK_ReadMemEx(0x2000B5D8, 0x4 Bytes, Flags = 0x02000000)
T94AC 030:623.302   CPU_ReadMem(4 bytes @ 0x2000B5D8)
T94AC 030:624.064   Data:  00 00 00 00
T94AC 030:624.102 - 0.818ms returns 4 (0x4)
TAAEC 030:624.662 JLINK_ReadMemEx(0x20047064, 0x4 Bytes, Flags = 0x02000000)
TAAEC 030:624.694   CPU_ReadMem(4 bytes @ 0x20047064)
TAAEC 030:625.498   Data:  F1 AA 22 00
TAAEC 030:625.552 - 0.888ms returns 4 (0x4)
TAAEC 030:627.572 JLINK_ReadMemEx(0x2004705C, 0x4 Bytes, Flags = 0x02000000)
TAAEC 030:627.594   CPU_ReadMem(4 bytes @ 0x2004705C)
TAAEC 030:628.394   Data:  20 FB 24 00
TAAEC 030:628.416 - 0.845ms returns 4 (0x4)
TAAEC 030:628.428 JLINK_ReadMemEx(0x20047060, 0x4 Bytes, Flags = 0x02000000)
TAAEC 030:628.438   CPU_ReadMem(4 bytes @ 0x20047060)
TAAEC 030:629.238   Data:  20 FB 24 00
TAAEC 030:629.252 - 0.823ms returns 4 (0x4)
TAAEC 030:629.260 JLINK_ReadMemEx(0x20047064, 0x4 Bytes, Flags = 0x02000000)
TAAEC 030:629.270   CPU_ReadMem(4 bytes @ 0x20047064)
TAAEC 030:630.006   Data:  F1 AA 22 00
TAAEC 030:630.020 - 0.759ms returns 4 (0x4)
TAAEC 030:630.032 JLINK_ReadMemEx(0x2004706C, 0x4 Bytes, Flags = 0x02000000)
TAAEC 030:630.042   CPU_ReadMem(4 bytes @ 0x2004706C)
TAAEC 030:630.726   Data:  27 3A 21 00
TAAEC 030:630.748 - 0.717ms returns 4 (0x4)
TAAEC 030:630.762 JLINK_ReadMemEx(0x20047068, 0x4 Bytes, Flags = 0x02000000)
TAAEC 030:630.772   CPU_ReadMem(4 bytes @ 0x20047068)
TAAEC 030:631.434   Data:  20 FB 24 00
TAAEC 030:631.446 - 0.684ms returns 4 (0x4)
TAAEC 030:631.456 JLINK_ReadMemEx(0x2004706C, 0x4 Bytes, Flags = 0x02000000)
TAAEC 030:631.462   CPU_ReadMem(4 bytes @ 0x2004706C)
TAAEC 030:632.272   Data:  27 3A 21 00
TAAEC 030:632.294 - 0.838ms returns 4 (0x4)
TAAEC 030:632.308 JLINK_ReadMemEx(0x20047074, 0x4 Bytes, Flags = 0x02000000)
TAAEC 030:632.316   CPU_ReadMem(4 bytes @ 0x20047074)
TAAEC 030:633.268   Data:  4F 96 23 00
TAAEC 030:633.290 - 0.982ms returns 4 (0x4)
TAAEC 030:633.302 JLINK_ReadMemEx(0x20047070, 0x4 Bytes, Flags = 0x02000000)
TAAEC 030:633.322   CPU_ReadMem(4 bytes @ 0x20047070)
TAAEC 030:634.080   Data:  20 FB 24 00
TAAEC 030:634.100 - 0.796ms returns 4 (0x4)
TAAEC 030:634.112 JLINK_ReadMemEx(0x20047074, 0x4 Bytes, Flags = 0x02000000)
TAAEC 030:634.122   CPU_ReadMem(4 bytes @ 0x20047074)
TAAEC 030:634.890   Data:  4F 96 23 00
TAAEC 030:634.908 - 0.797ms returns 4 (0x4)
TAAEC 030:635.036 JLINK_ReadMemEx(0x20046FE4, 0x20 Bytes, Flags = 0x02000000)
TAAEC 030:635.050   CPU_ReadMem(32 bytes @ 0x20046FE4)
TAAEC 030:636.266   Data:  20 6D 6F 64 75 6C 65 2E 2E 2E 0D 0A 3D 3D 3D 3D ...
TAAEC 030:636.288 - 1.250ms returns 32 (0x20)
TAAEC 030:639.604 JLINK_ReadMemEx(0x20046FE4, 0x20 Bytes, Flags = 0x02000000)
TAAEC 030:639.636   CPU_ReadMem(32 bytes @ 0x20046FE4)
TAAEC 030:640.860   Data:  20 6D 6F 64 75 6C 65 2E 2E 2E 0D 0A 3D 3D 3D 3D ...
TAAEC 030:640.922 - 1.320ms returns 32 (0x20)
TAAEC 030:640.976 JLINK_ReadMemEx(0x2000B62C, 0x1 Bytes, Flags = 0x02000000)
TAAEC 030:640.988   CPU_ReadMem(1 bytes @ 0x2000B62C)
TAAEC 030:641.684   Data:  00
TAAEC 030:641.706 - 0.729ms returns 1 (0x1)
TAAEC 030:642.586 JLINK_ReadMemEx(0x0021AABC, 0x3C Bytes, Flags = 0x02000000)
TAAEC 030:642.608   CPU_ReadMem(128 bytes @ 0x0021AA80)
TAAEC 030:644.756    -- Updating DA cache (128 bytes @ 0x0021AA80)
TAAEC 030:644.772    -- Read from DA cache (60 bytes @ 0x0021AABC)
TAAEC 030:644.784   Data:  42 48 00 78 02 28 02 D1 01 20 40 49 08 70 00 24 ...
TAAEC 030:644.794 - 2.210ms returns 60 (0x3C)
TAAEC 030:644.804 JLINK_ReadMemEx(0x0021AABC, 0x2 Bytes, Flags = 0x02000000)
TAAEC 030:644.812    -- Read from DA cache (2 bytes @ 0x0021AABC)
TAAEC 030:644.822   Data:  42 48
TAAEC 030:644.832 - 0.028ms returns 2 (0x2)
TAAEC 030:644.896 JLINK_ReadMemEx(0x0021AABE, 0x2 Bytes, Flags = 0x02000000)
TAAEC 030:644.906    -- Read from DA cache (2 bytes @ 0x0021AABE)
TAAEC 030:644.916   Data:  00 78
TAAEC 030:644.924 - 0.028ms returns 2 (0x2)
TAAEC 030:644.944 JLINK_ReadMemEx(0x0021AABE, 0x2 Bytes, Flags = 0x02000000)
TAAEC 030:644.950    -- Read from DA cache (2 bytes @ 0x0021AABE)
TAAEC 030:644.960   Data:  00 78
TAAEC 030:644.970 - 0.027ms returns 2 (0x2)
TAAEC 030:644.980 JLINK_ReadMemEx(0x0021AAC0, 0x3C Bytes, Flags = 0x02000000)
TAAEC 030:644.986    -- Read from DA cache (60 bytes @ 0x0021AAC0)
TAAEC 030:644.998   Data:  02 28 02 D1 01 20 40 49 08 70 00 24 3F 48 40 49 ...
TAAEC 030:645.004 - 0.028ms returns 60 (0x3C)
TAAEC 030:645.014 JLINK_ReadMemEx(0x0021AAC0, 0x2 Bytes, Flags = 0x02000000)
TAAEC 030:645.020    -- Read from DA cache (2 bytes @ 0x0021AAC0)
TAAEC 030:645.030   Data:  02 28
TAAEC 030:645.040 - 0.026ms returns 2 (0x2)
TAAEC 034:061.084 JLINK_HasError()
TAAEC 034:061.176 JLINK_SetResetType(JLINKARM_CM3_RESET_TYPE_NORMAL)
TAAEC 034:061.196 - 0.024ms returns JLINKARM_CM3_RESET_TYPE_NORMAL
TAAEC 034:061.208 JLINK_Reset()
TAAEC 034:061.240   Memory map 'before startup completion point' is active
TAAEC 034:061.256   JLINK_GetResetTypeDesc
TAAEC 034:061.260   - 0.007ms 
TAAEC 034:061.272   Reset type: NORMAL (https://wiki.segger.com/J-Link_Reset_Strategies)
TAAEC 034:061.288   CPU_WriteMem(4 bytes @ 0xE000EDF0)
TAAEC 034:062.136   CPU_WriteMem(4 bytes @ 0xE000EDFC)
TAAEC 034:062.980   Reset: Halt core after reset via DEMCR.VC_CORERESET.
TAAEC 034:064.184   Reset: Reset device via AIRCR.SYSRESETREQ.
TAAEC 034:064.212   CPU_WriteMem(4 bytes @ 0xE000ED0C)
TAAEC 034:118.808   CPU_ReadMem(4 bytes @ 0xE000EDF0)
TAAEC 034:119.564   CPU_ReadMem(4 bytes @ 0xE000EDF0)
TAAEC 034:121.060   CPU_WriteMem(4 bytes @ 0xE000EDFC)
TAAEC 034:128.240   CPU_ReadMem(4 bytes @ 0xE000EDF0)
TAAEC 034:134.664   CPU_WriteMem(4 bytes @ 0xE0002000)
TAAEC 034:135.512   CPU_ReadMem(4 bytes @ 0xE000EDFC)
TAAEC 034:136.292   CPU_ReadMem(4 bytes @ 0xE0001000)
TAAEC 034:137.000 - 75.794ms 
TAAEC 034:139.032 JLINK_HasError()
TAAEC 034:139.080 JLINK_ReadReg(R15 (PC))
TAAEC 034:139.096 - 0.013ms returns 0x000001E4
TAAEC 034:139.104 JLINK_ReadReg(XPSR)
TAAEC 034:139.112 - 0.007ms returns 0x01000000
TAAEC 034:139.288 JLINK_ReadMemEx(0x000001E4, 0x3C Bytes, Flags = 0x02000000)
TAAEC 034:139.320   CPU_ReadMem(60 bytes @ 0x000001E4)
TAAEC 034:140.844   Data:  06 48 00 47 FE E7 FE E7 FE E7 FE E7 FE E7 FE E7 ...
TAAEC 034:140.892 - 1.603ms returns 60 (0x3C)
TAAEC 034:140.904 JLINK_ReadMemEx(0x000001E4, 0x2 Bytes, Flags = 0x02000000)
TAAEC 034:140.920   CPU_ReadMem(2 bytes @ 0x000001E4)
TAAEC 034:141.812   Data:  06 48
TAAEC 034:141.864 - 0.956ms returns 2 (0x2)
TAAEC 034:141.876 JLINK_ReadMemEx(0x000001E6, 0x2 Bytes, Flags = 0x02000000)
TAAEC 034:141.884   CPU_ReadMem(2 bytes @ 0x000001E6)
TAAEC 034:142.660   Data:  00 47
TAAEC 034:142.704 - 0.829ms returns 2 (0x2)
TAAEC 034:142.792 JLINK_ReadMemEx(0x000001E6, 0x2 Bytes, Flags = 0x02000000)
TAAEC 034:142.804   CPU_ReadMem(2 bytes @ 0x000001E6)
TAAEC 034:143.592   Data:  00 47
TAAEC 034:143.648 - 0.855ms returns 2 (0x2)
TAAEC 034:143.660 JLINK_ReadMemEx(0x000001E8, 0x3C Bytes, Flags = 0x02000000)
TAAEC 034:143.676   CPU_ReadMem(60 bytes @ 0x000001E8)
TAAEC 034:145.128   Data:  FE E7 FE E7 FE E7 FE E7 FE E7 FE E7 FE E7 FE E7 ...
TAAEC 034:145.184 - 1.519ms returns 60 (0x3C)
TAAEC 034:145.196 JLINK_ReadMemEx(0x000001E8, 0x2 Bytes, Flags = 0x02000000)
TAAEC 034:145.208   CPU_ReadMem(2 bytes @ 0x000001E8)
TAAEC 034:146.052   Data:  FE E7
TAAEC 034:146.084 - 0.883ms returns 2 (0x2)
TAAEC 034:146.144 JLINK_ReadMemEx(0x000001E8, 0x3C Bytes, Flags = 0x02000000)
TAAEC 034:146.156   CPU_ReadMem(60 bytes @ 0x000001E8)
TAAEC 034:147.536   Data:  FE E7 FE E7 FE E7 FE E7 FE E7 FE E7 FE E7 FE E7 ...
TAAEC 034:147.552 - 1.406ms returns 60 (0x3C)
TAAEC 034:147.560 JLINK_ReadMemEx(0x000001E8, 0x2 Bytes, Flags = 0x02000000)
TAAEC 034:147.568   CPU_ReadMem(2 bytes @ 0x000001E8)
TAAEC 034:148.344   Data:  FE E7
